
T31C0 000:345 SEGGER J-Link V5.12e Log File (0001ms, 0272ms total)
T31C0 000:345 DLL Compiled: Apr 29 2016 15:03:58 (0001ms, 0272ms total)
T31C0 000:345 Logging started @ 2019-03-05 17:33 (0001ms, 0272ms total)
T31C0 000:346 JLINK_SetWarnOutHandler(...) (0000ms, 0272ms total)
T31C0 000:346 JLINK_OpenEx(...)
Firmware: J-Link ARM V8 compiled Nov 28 2014 13:44:46
Hardware: V8.00
S/N: 12345678
Feature(s): RDI,FlashDL,FlashBP,JFlash,GDBFull  returns O.K. (0265ms, 0537ms total)
T31C0 000:611 JLINK_SetErrorOutHandler(...) (0000ms, 0537ms total)
T31C0 000:611 JLINK_ExecCommand("ProjectFile = "D:\My Work\HEIM\code\driver_bootloader_20171206\JLinkSettings.ini"", ...)  returns 0x00 (0001ms, 0538ms total)
T31C0 000:613 JLINK_ExecCommand("Device = STM32F103VC", ...)Device "STM32F103VC" selected.  returns 0x00 (0006ms, 0544ms total)
T31C0 000:619 JLINK_ExecCommand("DisableConnectionTimeout", ...)  returns 0x01 (0000ms, 0544ms total)
T31C0 000:619 JLINK_GetHardwareVersion()  returns 0x13880 (0000ms, 0544ms total)
T31C0 000:619 JLINK_GetDLLVersion()  returns 51205 (0000ms, 0544ms total)
T31C0 000:619 JLINK_GetFirmwareString(...) (0000ms, 0544ms total)
T31C0 000:626 JLINK_GetDLLVersion()  returns 51205 (0000ms, 0544ms total)
T31C0 000:626 JLINK_GetCompileDateTime() (0000ms, 0544ms total)
T31C0 000:630 JLINK_GetFirmwareString(...) (0000ms, 0544ms total)
T31C0 000:632 JLINK_GetHardwareVersion()  returns 0x13880 (0000ms, 0544ms total)
T31C0 000:673 JLINK_TIF_Select(JLINKARM_TIF_JTAG)  returns 0x00 (0001ms, 0545ms total)
T31C0 000:674 JLINK_SetSpeed(2000) (0000ms, 0545ms total)
T31C0 000:674 JLINK_GetIdData(...) >0x2F8 JTAG>TotalIRLen = 9, IRPrint = 0x0011 >0x30 JTAG> >0x210 JTAG> >0x40 JTAG> >0x40 JTAG> >0x40 JTAG> >0x30 JTAG> >0x40 JTAG> >0x40 JTAG> >0x40 JTAG> >0x40 JTAG> >0x40 JTAG> >0x40 JTAG> >0x40 JTAG> >0x40 JTAG> >0x40 JTAG> >0x40 JTAG> >0x40 JTAG> >0x40 JTAG> >0x40 JTAG> >0x40 JTAG> >0x40 JTAG> >0x40 JTAG> >0x40 JTAG> >0x40 JTAG> >0x40 JTAG> >0x40 JTAG> >0x40 JTAG> >0x40 JTAG> >0x2F8 JTAG>TotalIRLen = 9, IRPrint = 0x0011 >0x30 JTAG> >0x210 JTAG> >0x70 JTAG>
 >0x50 JTAG> >0x40 JTAG> >0x50 JTAG> >0x80 JTAG> >0x40 JTAG> >0x30 JTAG> >0x40 JTAG> >0x40 JTAG> >0x30 JTAG> >0x40 JTAG> >0x50 JTAG>Found Cortex-M3 r1p1, Little endian. -- CPU_ReadMem(4 bytes @ 0xE000EDF0) -- CPU_WriteMem(4 bytes @ 0xE000EDF0) -- CPU_ReadMem(4 bytes @ 0xE0002000)FPUnit: 6 code (BP) slots and 2 literal slots -- CPU_ReadMem(4 bytes @ 0xE000EDFC) -- CPU_WriteMem(4 bytes @ 0xE000EDFC) -- CPU_ReadMem(4 bytes @ 0xE0001000) -- CPU_WriteMem(4 bytes @ 0xE0001000)
 -- CPU_ReadMem(4 bytes @ 0xE000ED88) -- CPU_WriteMem(4 bytes @ 0xE000ED88) -- CPU_ReadMem(4 bytes @ 0xE000ED88) -- CPU_WriteMem(4 bytes @ 0xE000ED88)CoreSight components:ROMTbl 0 @ E00FF000 -- CPU_ReadMem(16 bytes @ 0xE00FF000) -- CPU_ReadMem(16 bytes @ 0xE000EFF0) -- CPU_ReadMem(16 bytes @ 0xE000EFE0)ROMTbl 0 [0]: FFF0F000, CID: B105E00D, PID: 001BB000 SCS -- CPU_ReadMem(16 bytes @ 0xE0001FF0) -- CPU_ReadMem(16 bytes @ 0xE0001FE0)ROMTbl 0 [1]: FFF02000, CID: B105E00D, PID: 001BB002 DWT
 -- CPU_ReadMem(16 bytes @ 0xE0002FF0) -- CPU_ReadMem(16 bytes @ 0xE0002FE0)ROMTbl 0 [2]: FFF03000, CID: B105E00D, PID: 000BB003 FPB -- CPU_ReadMem(16 bytes @ 0xE0000FF0) -- CPU_ReadMem(16 bytes @ 0xE0000FE0)ROMTbl 0 [3]: FFF01000, CID: B105E00D, PID: 001BB001 ITM -- CPU_ReadMem(16 bytes @ 0xE00FF010) -- CPU_ReadMem(16 bytes @ 0xE0040FF0) -- CPU_ReadMem(16 bytes @ 0xE0040FE0)ROMTbl 0 [4]: FFF41000, CID: B105900D, PID: 001BB923 TPIU-Lite ScanLen=9 NumDevices=2 aId[0]=0x3BA00477 aIrRead[0]=0 aScanLen[0]=0
 aScanRead[0]=0 (0077ms, 0622ms total)
T31C0 000:751 JLINK_JTAG_GetDeviceID(DeviceIndex = 0)  returns 0x3BA00477 (0000ms, 0622ms total)
T31C0 000:752 JLINK_JTAG_GetDeviceInfo(DeviceIndex = 0)  returns 0x00 (0000ms, 0623ms total)
T31C0 000:752 JLINK_JTAG_GetDeviceID(DeviceIndex = 1)  returns 0x16410041 (0000ms, 0623ms total)
T31C0 000:752 JLINK_JTAG_GetDeviceInfo(DeviceIndex = 1)  returns 0x00 (0000ms, 0623ms total)
T31C0 000:752 JLINK_GetDLLVersion()  returns 51205 (0000ms, 0623ms total)
T31C0 000:752 JLINK_CORE_GetFound()  returns 0x30000FF (0000ms, 0623ms total)
T31C0 000:752 JLINK_GetDebugInfo(0x100) -- Value=0xE00FF003  returns 0x00 (0000ms, 0623ms total)
T31C0 000:754 JLINK_GetDebugInfo(0x100) -- Value=0xE00FF003  returns 0x00 (0000ms, 0623ms total)
T31C0 000:754 JLINK_GetDebugInfo(0x101) -- Value=0x00000000  returns 0x00 (0000ms, 0623ms total)
T31C0 000:754 JLINK_ReadMem (0xE0041FF0, 0x0010 Bytes, ...) -- CPU is running -- CPU_ReadMem(16 bytes @ 0xE0041FF0) - Data: 00 00 00 00 00 00 00 00 00 00 00 00 00 00 00 00  returns 0x00 (0001ms, 0624ms total)
T31C0 000:755 JLINK_GetDebugInfo(0x102) -- Value=0x00000000  returns 0x00 (0000ms, 0624ms total)
T31C0 000:755 JLINK_GetDebugInfo(0x103) -- Value=0xE0040000  returns 0x00 (0000ms, 0624ms total)
T31C0 000:755 JLINK_GetDebugInfo(0x104) -- Value=0xE0000000  returns 0x00 (0000ms, 0624ms total)
T31C0 000:755 JLINK_GetDebugInfo(0x105) -- Value=0xE0001000  returns 0x00 (0000ms, 0624ms total)
T31C0 000:755 JLINK_GetDebugInfo(0x106) -- Value=0xE0002000  returns 0x00 (0000ms, 0624ms total)
T31C0 000:755 JLINK_GetDebugInfo(0x107) -- Value=0xE000E000  returns 0x00 (0000ms, 0624ms total)
T31C0 000:755 JLINK_GetDebugInfo(0x10C) -- Value=0xE000EDF0  returns 0x00 (0000ms, 0624ms total)
T31C0 000:755 JLINK_ReadMemU32(0xE000ED00, 0x0001 Items, ...) -- CPU is running -- CPU_ReadMem(4 bytes @ 0xE000ED00) - Data: 31 C2 1F 41  returns 0x01 (0001ms, 0625ms total)
T31C0 000:756 JLINK_SetResetType(JLINKARM_RESET_TYPE_NORMAL)  returns JLINKARM_RESET_TYPE_NORMAL (0000ms, 0625ms total)
T31C0 000:756 JLINK_Reset() -- CPU is running -- CPU_WriteMem(4 bytes @ 0xE000EDF0) -- CPU is running -- CPU_WriteMem(4 bytes @ 0xE000EDFC) -- CPU is running -- CPU_WriteMem(4 bytes @ 0xE000ED0C) -- CPU is running -- CPU_ReadMem(4 bytes @ 0xE000EDF0) -- CPU is running -- CPU_ReadMem(4 bytes @ 0xE000EDF0) -- CPU is running -- CPU_ReadMem(4 bytes @ 0xE000EDF0) -- CPU is running -- CPU_ReadMem(4 bytes @ 0xE000EDF0) -- CPU is running -- CPU_ReadMem(4 bytes @ 0xE000EDF0) -- CPU is running
 -- CPU_ReadMem(4 bytes @ 0xE000EDF0) -- CPU is running -- CPU_ReadMem(4 bytes @ 0xE000EDF0) -- CPU is running -- CPU_ReadMem(4 bytes @ 0xE000EDF0) -- CPU is running -- CPU_WriteMem(4 bytes @ 0xE000EDF0) -- CPU is running -- CPU_WriteMem(4 bytes @ 0xE000EDFC) -- CPU is running -- CPU_ReadMem(4 bytes @ 0xE000EDF0) >0x80 JTAG> >0x40 JTAG> >0x30 JTAG> >0x40 JTAG> >0x50 JTAG> >0x40 JTAG> -- CPU_WriteMem(4 bytes @ 0xE000EDFC) -- CPU_WriteMem(4 bytes @ 0xE0001028) -- CPU_WriteMem(4 bytes @ 0xE0001038)
 -- CPU_WriteMem(4 bytes @ 0xE0001048) -- CPU_WriteMem(4 bytes @ 0xE0001058) -- CPU_WriteMem(4 bytes @ 0xE0002000) -- CPU_ReadMem(4 bytes @ 0xE000EDFC) -- CPU_ReadMem(4 bytes @ 0xE0001000) (0033ms, 0658ms total)
T31C0 000:789 JLINK_Halt()  returns 0x00 (0000ms, 0658ms total)
T31C0 000:789 JLINK_IsHalted()  returns TRUE (0000ms, 0658ms total)
T31C0 000:789 JLINK_ReadMemU32(0xE000EDF0, 0x0001 Items, ...) -- CPU_ReadMem(4 bytes @ 0xE000EDF0) - Data: 03 00 03 00  returns 0x01 (0001ms, 0659ms total)
T31C0 000:790 JLINK_WriteU32(0xE000EDF0, 0xA05F0003) -- CPU_WriteMem(4 bytes @ 0xE000EDF0)  returns 0x00 (0000ms, 0659ms total)
T31C0 000:790 JLINK_WriteU32(0xE000EDFC, 0x01000000) -- CPU_WriteMem(4 bytes @ 0xE000EDFC)  returns 0x00 (0001ms, 0660ms total)
T31C0 000:803 JLINK_GetHWStatus(...)  returns 0x00 (0000ms, 0660ms total)
T31C0 000:814 JLINK_GetNumBPUnits(Type = 0xFFFFFF00)  returns 0x06 (0000ms, 0660ms total)
T31C0 000:814 JLINK_GetNumBPUnits(Type = 0xF0)  returns 0x2000 (0000ms, 0660ms total)
T31C0 000:814 JLINK_GetNumWPUnits()  returns 0x04 (0000ms, 0660ms total)
T31C0 000:821 JLINK_GetSpeed()  returns 0x7D0 (0000ms, 0660ms total)
T31C0 000:825 JLINK_ReadMemU32(0xE000E004, 0x0001 Items, ...) -- CPU_ReadMem(4 bytes @ 0xE000E004) - Data: 01 00 00 00  returns 0x01 (0001ms, 0661ms total)
T31C0 000:826 JLINK_ReadMemU32(0xE000E004, 0x0001 Items, ...) -- CPU_ReadMem(4 bytes @ 0xE000E004) - Data: 01 00 00 00  returns 0x01 (0001ms, 0662ms total)
T31C0 000:827 JLINK_WriteMem(0xE0001000, 0x001C Bytes, ...) - Data: 01 00 00 00 00 00 00 00 00 00 00 00 00 00 00 00 ... -- CPU_WriteMem(28 bytes @ 0xE0001000)  returns 0x1C (0001ms, 0663ms total)
T31C0 000:828 JLINK_ReadMem (0xE0001000, 0x001C Bytes, ...) -- CPU_ReadMem(28 bytes @ 0xE0001000) - Data: 01 00 00 40 00 00 00 00 00 00 00 00 00 00 00 00 ...  returns 0x00 (0001ms, 0664ms total)
T31C0 000:829 JLINK_Halt()  returns 0x00 (0000ms, 0664ms total)
T31C0 000:829 JLINK_IsHalted()  returns TRUE (0000ms, 0664ms total)
T31C0 000:835 JLINK_WriteMem(0x20000000, 0x0164 Bytes, ...) - Data: 00 BE 0A E0 0D 78 2D 06 68 40 08 24 40 00 00 D3 ... -- CPU_WriteMem(356 bytes @ 0x20000000)  returns 0x164 (0003ms, 0667ms total)
T31C0 000:838 JLINK_WriteReg(R0, 0x08000000)  returns 0x00 (0000ms, 0667ms total)
T31C0 000:838 JLINK_WriteReg(R1, 0x007A1200)  returns 0x00 (0000ms, 0667ms total)
T31C0 000:838 JLINK_WriteReg(R2, 0x00000001)  returns 0x00 (0000ms, 0667ms total)
T31C0 000:838 JLINK_WriteReg(R3, 0x00000000)  returns 0x00 (0000ms, 0667ms total)
T31C0 000:838 JLINK_WriteReg(R4, 0x00000000)  returns 0x00 (0000ms, 0667ms total)
T31C0 000:838 JLINK_WriteReg(R5, 0x00000000)  returns 0x00 (0000ms, 0667ms total)
T31C0 000:838 JLINK_WriteReg(R6, 0x00000000)  returns 0x00 (0000ms, 0667ms total)
T31C0 000:838 JLINK_WriteReg(R7, 0x00000000)  returns 0x00 (0000ms, 0667ms total)
T31C0 000:838 JLINK_WriteReg(R8, 0x00000000)  returns 0x00 (0001ms, 0668ms total)
T31C0 000:839 JLINK_WriteReg(R9, 0x20000160)  returns 0x00 (0000ms, 0668ms total)
T31C0 000:839 JLINK_WriteReg(R10, 0x00000000)  returns 0x00 (0000ms, 0668ms total)
T31C0 000:839 JLINK_WriteReg(R11, 0x00000000)  returns 0x00 (0000ms, 0668ms total)
T31C0 000:839 JLINK_WriteReg(R12, 0x00000000)  returns 0x00 (0000ms, 0668ms total)
T31C0 000:839 JLINK_WriteReg(R13 (SP), 0x20001000)  returns 0x00 (0000ms, 0668ms total)
T31C0 000:839 JLINK_WriteReg(R14, 0x20000001)  returns 0x00 (0000ms, 0668ms total)
T31C0 000:839 JLINK_WriteReg(R15 (PC), 0x20000038)  returns 0x00 (0000ms, 0668ms total)
T31C0 000:839 JLINK_WriteReg(XPSR, 0x01000000)  returns 0x00 (0000ms, 0668ms total)
T31C0 000:839 JLINK_WriteReg(MSP, 0x20001000)  returns 0x00 (0000ms, 0668ms total)
T31C0 000:839 JLINK_WriteReg(PSP, 0x20001000)  returns 0x00 (0000ms, 0668ms total)
T31C0 000:839 JLINK_WriteReg(CFBP, 0x00000000)  returns 0x00 (0000ms, 0668ms total)
T31C0 000:839 JLINK_SetBPEx(Addr = 0x20000000, Type = 0xFFFFFFF2) -- CPU_ReadMem(2 bytes @ 0x20000000)  returns 0x00000001 (0000ms, 0668ms total)
T31C0 000:839 JLINK_Go() -- CPU_WriteMem(2 bytes @ 0x20000000) -- CPU_ReadMem(4 bytes @ 0xE0001000) -- CPU_WriteMem(4 bytes @ 0xE0002008) -- CPU_WriteMem(4 bytes @ 0xE000200C) -- CPU_WriteMem(4 bytes @ 0xE0002010) -- CPU_WriteMem(4 bytes @ 0xE0002014) -- CPU_WriteMem(4 bytes @ 0xE0002018) -- CPU_WriteMem(4 bytes @ 0xE000201C) -- CPU_WriteMem(4 bytes @ 0xE0001004) (0007ms, 0675ms total)
T31C0 000:846 JLINK_IsHalted() -- CPU_ReadMem(2 bytes @ 0x20000000)  returns TRUE (0005ms, 0680ms total)
T31C0 000:851 JLINK_ReadReg(R15 (PC))  returns 0x20000000 (0000ms, 0675ms total)
T31C0 000:851 JLINK_ClrBPEx(BPHandle = 0x00000001)  returns 0x00 (0000ms, 0675ms total)
T31C0 000:851 JLINK_ReadReg(R0)  returns 0x00000000 (0000ms, 0675ms total)
T31C0 000:853 JLINK_WriteReg(R0, 0x08000000)  returns 0x00 (0000ms, 0675ms total)
T31C0 000:853 JLINK_WriteReg(R1, 0x007A1200)  returns 0x00 (0000ms, 0675ms total)
T31C0 000:853 JLINK_WriteReg(R2, 0x00000001)  returns 0x00 (0000ms, 0675ms total)
T31C0 000:853 JLINK_WriteReg(R3, 0x00000000)  returns 0x00 (0000ms, 0675ms total)
T31C0 000:853 JLINK_WriteReg(R4, 0x00000000)  returns 0x00 (0000ms, 0675ms total)
T31C0 000:853 JLINK_WriteReg(R5, 0x00000000)  returns 0x00 (0000ms, 0675ms total)
T31C0 000:853 JLINK_WriteReg(R6, 0x00000000)  returns 0x00 (0000ms, 0675ms total)
T31C0 000:853 JLINK_WriteReg(R7, 0x00000000)  returns 0x00 (0000ms, 0675ms total)
T31C0 000:853 JLINK_WriteReg(R8, 0x00000000)  returns 0x00 (0000ms, 0675ms total)
T31C0 000:853 JLINK_WriteReg(R9, 0x20000160)  returns 0x00 (0000ms, 0675ms total)
T31C0 000:853 JLINK_WriteReg(R10, 0x00000000)  returns 0x00 (0000ms, 0675ms total)
T31C0 000:853 JLINK_WriteReg(R11, 0x00000000)  returns 0x00 (0000ms, 0675ms total)
T31C0 000:853 JLINK_WriteReg(R12, 0x00000000)  returns 0x00 (0000ms, 0675ms total)
T31C0 000:853 JLINK_WriteReg(R13 (SP), 0x20001000)  returns 0x00 (0000ms, 0675ms total)
T31C0 000:853 JLINK_WriteReg(R14, 0x20000001)  returns 0x00 (0000ms, 0675ms total)
T31C0 000:853 JLINK_WriteReg(R15 (PC), 0x2000007C)  returns 0x00 (0000ms, 0675ms total)
T31C0 000:853 JLINK_WriteReg(XPSR, 0x01000000)  returns 0x00 (0000ms, 0675ms total)
T31C0 000:853 JLINK_WriteReg(MSP, 0x20001000)  returns 0x00 (0000ms, 0675ms total)
T31C0 000:853 JLINK_WriteReg(PSP, 0x20001000)  returns 0x00 (0000ms, 0675ms total)
T31C0 000:853 JLINK_WriteReg(CFBP, 0x00000000)  returns 0x00 (0000ms, 0675ms total)
T31C0 000:853 JLINK_SetBPEx(Addr = 0x20000000, Type = 0xFFFFFFF2)  returns 0x00000002 (0000ms, 0675ms total)
T31C0 000:853 JLINK_Go() -- CPU_ReadMem(4 bytes @ 0xE0001000) (0002ms, 0677ms total)
T31C0 000:855 JLINK_IsHalted()  returns FALSE (0000ms, 0677ms total)
T31C0 000:922 JLINK_IsHalted() -- CPU_ReadMem(2 bytes @ 0x20000000)  returns TRUE (0005ms, 0682ms total)
T31C0 000:927 JLINK_ReadReg(R15 (PC))  returns 0x20000000 (0000ms, 0677ms total)
T31C0 000:927 JLINK_ClrBPEx(BPHandle = 0x00000002)  returns 0x00 (0000ms, 0677ms total)
T31C0 000:927 JLINK_ReadReg(R0)  returns 0x00000000 (0000ms, 0677ms total)
T31C0 000:980 JLINK_WriteReg(R0, 0x00000001)  returns 0x00 (0000ms, 0677ms total)
T31C0 000:980 JLINK_WriteReg(R1, 0x007A1200)  returns 0x00 (0000ms, 0677ms total)
T31C0 000:980 JLINK_WriteReg(R2, 0x00000001)  returns 0x00 (0001ms, 0678ms total)
T31C0 000:981 JLINK_WriteReg(R3, 0x00000000)  returns 0x00 (0000ms, 0678ms total)
T31C0 000:981 JLINK_WriteReg(R4, 0x00000000)  returns 0x00 (0000ms, 0678ms total)
T31C0 000:981 JLINK_WriteReg(R5, 0x00000000)  returns 0x00 (0000ms, 0678ms total)
T31C0 000:981 JLINK_WriteReg(R6, 0x00000000)  returns 0x00 (0000ms, 0678ms total)
T31C0 000:981 JLINK_WriteReg(R7, 0x00000000)  returns 0x00 (0000ms, 0678ms total)
T31C0 000:981 JLINK_WriteReg(R8, 0x00000000)  returns 0x00 (0000ms, 0678ms total)
T31C0 000:981 JLINK_WriteReg(R9, 0x20000160)  returns 0x00 (0000ms, 0678ms total)
T31C0 000:981 JLINK_WriteReg(R10, 0x00000000)  returns 0x00 (0000ms, 0678ms total)
T31C0 000:981 JLINK_WriteReg(R11, 0x00000000)  returns 0x00 (0000ms, 0678ms total)
T31C0 000:981 JLINK_WriteReg(R12, 0x00000000)  returns 0x00 (0000ms, 0678ms total)
T31C0 000:981 JLINK_WriteReg(R13 (SP), 0x20001000)  returns 0x00 (0000ms, 0678ms total)
T31C0 000:981 JLINK_WriteReg(R14, 0x20000001)  returns 0x00 (0000ms, 0678ms total)
T31C0 000:981 JLINK_WriteReg(R15 (PC), 0x2000006A)  returns 0x00 (0000ms, 0678ms total)
T31C0 000:981 JLINK_WriteReg(XPSR, 0x01000000)  returns 0x00 (0000ms, 0678ms total)
T31C0 000:981 JLINK_WriteReg(MSP, 0x20001000)  returns 0x00 (0000ms, 0678ms total)
T31C0 000:981 JLINK_WriteReg(PSP, 0x20001000)  returns 0x00 (0000ms, 0678ms total)
T31C0 000:981 JLINK_WriteReg(CFBP, 0x00000000)  returns 0x00 (0000ms, 0678ms total)
T31C0 000:981 JLINK_SetBPEx(Addr = 0x20000000, Type = 0xFFFFFFF2)  returns 0x00000003 (0000ms, 0678ms total)
T31C0 000:981 JLINK_Go() -- CPU_ReadMem(4 bytes @ 0xE0001000) (0002ms, 0680ms total)
T31C0 000:983 JLINK_IsHalted() -- CPU_ReadMem(2 bytes @ 0x20000000)  returns TRUE (0005ms, 0685ms total)
T31C0 000:988 JLINK_ReadReg(R15 (PC))  returns 0x20000000 (0000ms, 0680ms total)
T31C0 000:988 JLINK_ClrBPEx(BPHandle = 0x00000003)  returns 0x00 (0000ms, 0680ms total)
T31C0 000:988 JLINK_ReadReg(R0)  returns 0x00000000 (0000ms, 0680ms total)
T31C0 000:993 JLINK_WriteMem(0x20000000, 0x0164 Bytes, ...) - Data: 00 BE 0A E0 0D 78 2D 06 68 40 08 24 40 00 00 D3 ... -- CPU_WriteMem(356 bytes @ 0x20000000)  returns 0x164 (0003ms, 0683ms total)
T31C0 000:996 JLINK_WriteReg(R0, 0x08000000)  returns 0x00 (0000ms, 0683ms total)
T31C0 000:996 JLINK_WriteReg(R1, 0x007A1200)  returns 0x00 (0000ms, 0683ms total)
T31C0 000:996 JLINK_WriteReg(R2, 0x00000002)  returns 0x00 (0000ms, 0683ms total)
T31C0 000:996 JLINK_WriteReg(R3, 0x00000000)  returns 0x00 (0000ms, 0683ms total)
T31C0 000:996 JLINK_WriteReg(R4, 0x00000000)  returns 0x00 (0000ms, 0683ms total)
T31C0 000:996 JLINK_WriteReg(R5, 0x00000000)  returns 0x00 (0000ms, 0683ms total)
T31C0 000:996 JLINK_WriteReg(R6, 0x00000000)  returns 0x00 (0000ms, 0683ms total)
T31C0 000:996 JLINK_WriteReg(R7, 0x00000000)  returns 0x00 (0000ms, 0683ms total)
T31C0 000:996 JLINK_WriteReg(R8, 0x00000000)  returns 0x00 (0000ms, 0683ms total)
T31C0 000:996 JLINK_WriteReg(R9, 0x20000160)  returns 0x00 (0000ms, 0683ms total)
T31C0 000:996 JLINK_WriteReg(R10, 0x00000000)  returns 0x00 (0000ms, 0683ms total)
T31C0 000:996 JLINK_WriteReg(R11, 0x00000000)  returns 0x00 (0000ms, 0683ms total)
T31C0 000:996 JLINK_WriteReg(R12, 0x00000000)  returns 0x00 (0000ms, 0683ms total)
T31C0 000:996 JLINK_WriteReg(R13 (SP), 0x20001000)  returns 0x00 (0000ms, 0683ms total)
T31C0 000:996 JLINK_WriteReg(R14, 0x20000001)  returns 0x00 (0000ms, 0683ms total)
T31C0 000:996 JLINK_WriteReg(R15 (PC), 0x20000038)  returns 0x00 (0000ms, 0683ms total)
T31C0 000:996 JLINK_WriteReg(XPSR, 0x01000000)  returns 0x00 (0000ms, 0683ms total)
T31C0 000:996 JLINK_WriteReg(MSP, 0x20001000)  returns 0x00 (0000ms, 0683ms total)
T31C0 000:996 JLINK_WriteReg(PSP, 0x20001000)  returns 0x00 (0000ms, 0683ms total)
T31C0 000:996 JLINK_WriteReg(CFBP, 0x00000000)  returns 0x00 (0000ms, 0683ms total)
T31C0 000:996 JLINK_SetBPEx(Addr = 0x20000000, Type = 0xFFFFFFF2) -- CPU_ReadMem(2 bytes @ 0x20000000)  returns 0x00000004 (0001ms, 0684ms total)
T31C0 000:997 JLINK_Go() -- CPU_WriteMem(2 bytes @ 0x20000000) -- CPU_ReadMem(4 bytes @ 0xE0001000) (0003ms, 0687ms total)
T31C0 001:000 JLINK_IsHalted() -- CPU_ReadMem(2 bytes @ 0x20000000)  returns TRUE (0005ms, 0692ms total)
T31C0 001:005 JLINK_ReadReg(R15 (PC))  returns 0x20000000 (0000ms, 0687ms total)
T31C0 001:005 JLINK_ClrBPEx(BPHandle = 0x00000004)  returns 0x00 (0000ms, 0687ms total)
T31C0 001:005 JLINK_ReadReg(R0)  returns 0x00000000 (0000ms, 0687ms total)
T31C0 001:005 JLINK_WriteMem(0x20000164, 0x0400 Bytes, ...) - Data: 80 0B 00 20 A9 01 00 08 A9 27 00 08 AB 27 00 08 ... -- CPU_WriteMem(1024 bytes @ 0x20000164)  returns 0x400 (0007ms, 0694ms total)
T31C0 001:012 JLINK_WriteReg(R0, 0x08000000)  returns 0x00 (0000ms, 0694ms total)
T31C0 001:012 JLINK_WriteReg(R1, 0x00000400)  returns 0x00 (0000ms, 0694ms total)
T31C0 001:012 JLINK_WriteReg(R2, 0x20000164)  returns 0x00 (0000ms, 0694ms total)
T31C0 001:012 JLINK_WriteReg(R3, 0x00000000)  returns 0x00 (0000ms, 0694ms total)
T31C0 001:012 JLINK_WriteReg(R4, 0x00000000)  returns 0x00 (0000ms, 0694ms total)
T31C0 001:012 JLINK_WriteReg(R5, 0x00000000)  returns 0x00 (0000ms, 0694ms total)
T31C0 001:012 JLINK_WriteReg(R6, 0x00000000)  returns 0x00 (0000ms, 0694ms total)
T31C0 001:012 JLINK_WriteReg(R7, 0x00000000)  returns 0x00 (0000ms, 0694ms total)
T31C0 001:012 JLINK_WriteReg(R8, 0x00000000)  returns 0x00 (0000ms, 0694ms total)
T31C0 001:012 JLINK_WriteReg(R9, 0x20000160)  returns 0x00 (0000ms, 0694ms total)
T31C0 001:012 JLINK_WriteReg(R10, 0x00000000)  returns 0x00 (0000ms, 0694ms total)
T31C0 001:012 JLINK_WriteReg(R11, 0x00000000)  returns 0x00 (0000ms, 0694ms total)
T31C0 001:012 JLINK_WriteReg(R12, 0x00000000)  returns 0x00 (0000ms, 0694ms total)
T31C0 001:012 JLINK_WriteReg(R13 (SP), 0x20001000)  returns 0x00 (0000ms, 0694ms total)
T31C0 001:012 JLINK_WriteReg(R14, 0x20000001)  returns 0x00 (0000ms, 0694ms total)
T31C0 001:012 JLINK_WriteReg(R15 (PC), 0x200000F4)  returns 0x00 (0000ms, 0694ms total)
T31C0 001:012 JLINK_WriteReg(XPSR, 0x01000000)  returns 0x00 (0000ms, 0694ms total)
T31C0 001:012 JLINK_WriteReg(MSP, 0x20001000)  returns 0x00 (0000ms, 0694ms total)
T31C0 001:012 JLINK_WriteReg(PSP, 0x20001000)  returns 0x00 (0000ms, 0694ms total)
T31C0 001:012 JLINK_WriteReg(CFBP, 0x00000000)  returns 0x00 (0000ms, 0694ms total)
T31C0 001:012 JLINK_SetBPEx(Addr = 0x20000000, Type = 0xFFFFFFF2)  returns 0x00000005 (0000ms, 0694ms total)
T31C0 001:012 JLINK_Go() -- CPU_ReadMem(4 bytes @ 0xE0001000) (0002ms, 0696ms total)
T31C0 001:014 JLINK_IsHalted()  returns FALSE (0001ms, 0697ms total)
T31C0 001:021 JLINK_IsHalted()  returns FALSE (0000ms, 0696ms total)
T31C0 001:023 JLINK_IsHalted()  returns FALSE (0001ms, 0698ms total)
T31C0 001:026 JLINK_IsHalted()  returns FALSE (0000ms, 0697ms total)
T31C0 001:028 JLINK_IsHalted()  returns FALSE (0000ms, 0697ms total)
T31C0 001:030 JLINK_IsHalted()  returns FALSE (0000ms, 0697ms total)
T31C0 001:032 JLINK_IsHalted()  returns FALSE (0000ms, 0697ms total)
T31C0 001:034 JLINK_IsHalted()  returns FALSE (0000ms, 0697ms total)
T31C0 001:036 JLINK_IsHalted()  returns FALSE (0000ms, 0697ms total)
T31C0 001:038 JLINK_IsHalted()  returns FALSE (0000ms, 0697ms total)
T31C0 001:040 JLINK_IsHalted()  returns FALSE (0000ms, 0697ms total)
T31C0 001:042 JLINK_IsHalted()  returns FALSE (0000ms, 0697ms total)
T31C0 001:044 JLINK_IsHalted()  returns FALSE (0000ms, 0697ms total)
T31C0 001:046 JLINK_IsHalted() -- CPU_ReadMem(2 bytes @ 0x20000000)  returns TRUE (0005ms, 0702ms total)
T31C0 001:051 JLINK_ReadReg(R15 (PC))  returns 0x20000000 (0000ms, 0697ms total)
T31C0 001:051 JLINK_ClrBPEx(BPHandle = 0x00000005)  returns 0x00 (0000ms, 0697ms total)
T31C0 001:051 JLINK_ReadReg(R0)  returns 0x00000000 (0000ms, 0697ms total)
T31C0 001:051 JLINK_WriteMem(0x20000164, 0x0400 Bytes, ...) - Data: E0 25 C5 F8 00 41 09 E0 04 78 04 F0 1F 05 01 24 ... -- CPU_WriteMem(1024 bytes @ 0x20000164)  returns 0x400 (0007ms, 0704ms total)
T31C0 001:058 JLINK_WriteReg(R0, 0x08000400)  returns 0x00 (0000ms, 0704ms total)
T31C0 001:058 JLINK_WriteReg(R1, 0x00000400)  returns 0x00 (0000ms, 0704ms total)
T31C0 001:058 JLINK_WriteReg(R2, 0x20000164)  returns 0x00 (0000ms, 0704ms total)
T31C0 001:058 JLINK_WriteReg(R3, 0x00000000)  returns 0x00 (0000ms, 0704ms total)
T31C0 001:058 JLINK_WriteReg(R4, 0x00000000)  returns 0x00 (0000ms, 0704ms total)
T31C0 001:058 JLINK_WriteReg(R5, 0x00000000)  returns 0x00 (0000ms, 0704ms total)
T31C0 001:058 JLINK_WriteReg(R6, 0x00000000)  returns 0x00 (0000ms, 0704ms total)
T31C0 001:058 JLINK_WriteReg(R7, 0x00000000)  returns 0x00 (0000ms, 0704ms total)
T31C0 001:058 JLINK_WriteReg(R8, 0x00000000)  returns 0x00 (0000ms, 0704ms total)
T31C0 001:058 JLINK_WriteReg(R9, 0x20000160)  returns 0x00 (0000ms, 0704ms total)
T31C0 001:058 JLINK_WriteReg(R10, 0x00000000)  returns 0x00 (0000ms, 0704ms total)
T31C0 001:058 JLINK_WriteReg(R11, 0x00000000)  returns 0x00 (0000ms, 0704ms total)
T31C0 001:058 JLINK_WriteReg(R12, 0x00000000)  returns 0x00 (0000ms, 0704ms total)
T31C0 001:058 JLINK_WriteReg(R13 (SP), 0x20001000)  returns 0x00 (0000ms, 0704ms total)
T31C0 001:058 JLINK_WriteReg(R14, 0x20000001)  returns 0x00 (0000ms, 0704ms total)
T31C0 001:058 JLINK_WriteReg(R15 (PC), 0x200000F4)  returns 0x00 (0000ms, 0704ms total)
T31C0 001:058 JLINK_WriteReg(XPSR, 0x01000000)  returns 0x00 (0000ms, 0704ms total)
T31C0 001:058 JLINK_WriteReg(MSP, 0x20001000)  returns 0x00 (0000ms, 0704ms total)
T31C0 001:058 JLINK_WriteReg(PSP, 0x20001000)  returns 0x00 (0000ms, 0704ms total)
T31C0 001:058 JLINK_WriteReg(CFBP, 0x00000000)  returns 0x00 (0000ms, 0704ms total)
T31C0 001:058 JLINK_SetBPEx(Addr = 0x20000000, Type = 0xFFFFFFF2)  returns 0x00000006 (0000ms, 0704ms total)
T31C0 001:058 JLINK_Go() -- CPU_ReadMem(4 bytes @ 0xE0001000) (0002ms, 0706ms total)
T31C0 001:060 JLINK_IsHalted()  returns FALSE (0001ms, 0707ms total)
T31C0 001:063 JLINK_IsHalted()  returns FALSE (0000ms, 0706ms total)
T31C0 001:065 JLINK_IsHalted()  returns FALSE (0000ms, 0706ms total)
T31C0 001:067 JLINK_IsHalted()  returns FALSE (0000ms, 0706ms total)
T31C0 001:069 JLINK_IsHalted()  returns FALSE (0000ms, 0706ms total)
T31C0 001:071 JLINK_IsHalted()  returns FALSE (0000ms, 0706ms total)
T31C0 001:073 JLINK_IsHalted()  returns FALSE (0000ms, 0706ms total)
T31C0 001:075 JLINK_IsHalted()  returns FALSE (0000ms, 0706ms total)
T31C0 001:077 JLINK_IsHalted()  returns FALSE (0000ms, 0706ms total)
T31C0 001:079 JLINK_IsHalted()  returns FALSE (0000ms, 0706ms total)
T31C0 001:082 JLINK_IsHalted()  returns FALSE (0000ms, 0706ms total)
T31C0 001:084 JLINK_IsHalted()  returns FALSE (0001ms, 0707ms total)
T31C0 001:090 JLINK_IsHalted()  returns FALSE (0000ms, 0707ms total)
T31C0 001:092 JLINK_IsHalted() -- CPU_ReadMem(2 bytes @ 0x20000000)  returns TRUE (0005ms, 0712ms total)
T31C0 001:097 JLINK_ReadReg(R15 (PC))  returns 0x20000000 (0000ms, 0707ms total)
T31C0 001:097 JLINK_ClrBPEx(BPHandle = 0x00000006)  returns 0x00 (0000ms, 0707ms total)
T31C0 001:097 JLINK_ReadReg(R0)  returns 0x00000000 (0000ms, 0707ms total)
T31C0 001:097 JLINK_WriteMem(0x20000164, 0x0400 Bytes, ...) - Data: E6 48 00 69 40 F0 80 00 E4 49 08 61 70 47 04 20 ... -- CPU_WriteMem(1024 bytes @ 0x20000164)  returns 0x400 (0007ms, 0714ms total)
T31C0 001:104 JLINK_WriteReg(R0, 0x08000800)  returns 0x00 (0000ms, 0714ms total)
T31C0 001:104 JLINK_WriteReg(R1, 0x00000400)  returns 0x00 (0000ms, 0714ms total)
T31C0 001:104 JLINK_WriteReg(R2, 0x20000164)  returns 0x00 (0000ms, 0714ms total)
T31C0 001:104 JLINK_WriteReg(R3, 0x00000000)  returns 0x00 (0000ms, 0714ms total)
T31C0 001:104 JLINK_WriteReg(R4, 0x00000000)  returns 0x00 (0000ms, 0714ms total)
T31C0 001:104 JLINK_WriteReg(R5, 0x00000000)  returns 0x00 (0000ms, 0714ms total)
T31C0 001:104 JLINK_WriteReg(R6, 0x00000000)  returns 0x00 (0000ms, 0714ms total)
T31C0 001:104 JLINK_WriteReg(R7, 0x00000000)  returns 0x00 (0000ms, 0714ms total)
T31C0 001:104 JLINK_WriteReg(R8, 0x00000000)  returns 0x00 (0000ms, 0714ms total)
T31C0 001:104 JLINK_WriteReg(R9, 0x20000160)  returns 0x00 (0000ms, 0714ms total)
T31C0 001:104 JLINK_WriteReg(R10, 0x00000000)  returns 0x00 (0000ms, 0714ms total)
T31C0 001:104 JLINK_WriteReg(R11, 0x00000000)  returns 0x00 (0000ms, 0714ms total)
T31C0 001:104 JLINK_WriteReg(R12, 0x00000000)  returns 0x00 (0000ms, 0714ms total)
T31C0 001:104 JLINK_WriteReg(R13 (SP), 0x20001000)  returns 0x00 (0000ms, 0714ms total)
T31C0 001:104 JLINK_WriteReg(R14, 0x20000001)  returns 0x00 (0000ms, 0714ms total)
T31C0 001:104 JLINK_WriteReg(R15 (PC), 0x200000F4)  returns 0x00 (0001ms, 0715ms total)
T31C0 001:105 JLINK_WriteReg(XPSR, 0x01000000)  returns 0x00 (0000ms, 0715ms total)
T31C0 001:105 JLINK_WriteReg(MSP, 0x20001000)  returns 0x00 (0000ms, 0715ms total)
T31C0 001:105 JLINK_WriteReg(PSP, 0x20001000)  returns 0x00 (0000ms, 0715ms total)
T31C0 001:105 JLINK_WriteReg(CFBP, 0x00000000)  returns 0x00 (0000ms, 0715ms total)
T31C0 001:105 JLINK_SetBPEx(Addr = 0x20000000, Type = 0xFFFFFFF2)  returns 0x00000007 (0000ms, 0715ms total)
T31C0 001:105 JLINK_Go() -- CPU_ReadMem(4 bytes @ 0xE0001000) (0002ms, 0717ms total)
T31C0 001:107 JLINK_IsHalted()  returns FALSE (0001ms, 0718ms total)
T31C0 001:113 JLINK_IsHalted()  returns FALSE (0001ms, 0718ms total)
T31C0 001:115 JLINK_IsHalted()  returns FALSE (0000ms, 0717ms total)
T31C0 001:117 JLINK_IsHalted()  returns FALSE (0000ms, 0717ms total)
T31C0 001:119 JLINK_IsHalted()  returns FALSE (0000ms, 0717ms total)
T31C0 001:121 JLINK_IsHalted()  returns FALSE (0000ms, 0717ms total)
T31C0 001:123 JLINK_IsHalted()  returns FALSE (0000ms, 0717ms total)
T31C0 001:125 JLINK_IsHalted()  returns FALSE (0000ms, 0717ms total)
T31C0 001:127 JLINK_IsHalted()  returns FALSE (0001ms, 0718ms total)
T31C0 001:130 JLINK_IsHalted()  returns FALSE (0001ms, 0718ms total)
T31C0 001:132 JLINK_IsHalted()  returns FALSE (0000ms, 0717ms total)
T31C0 001:134 JLINK_IsHalted()  returns FALSE (0000ms, 0717ms total)
T31C0 001:136 JLINK_IsHalted()  returns FALSE (0000ms, 0717ms total)
T31C0 001:138 JLINK_IsHalted() -- CPU_ReadMem(2 bytes @ 0x20000000)  returns TRUE (0005ms, 0722ms total)
T31C0 001:143 JLINK_ReadReg(R15 (PC))  returns 0x20000000 (0000ms, 0717ms total)
T31C0 001:143 JLINK_ClrBPEx(BPHandle = 0x00000007)  returns 0x00 (0000ms, 0717ms total)
T31C0 001:143 JLINK_ReadReg(R0)  returns 0x00000000 (0000ms, 0717ms total)
T31C0 001:143 JLINK_WriteMem(0x20000164, 0x0400 Bytes, ...) - Data: 08 61 4F F4 30 20 FF F7 1A FE 04 46 04 2C 22 D1 ... -- CPU_WriteMem(1024 bytes @ 0x20000164)  returns 0x400 (0008ms, 0725ms total)
T31C0 001:151 JLINK_WriteReg(R0, 0x08000C00)  returns 0x00 (0000ms, 0725ms total)
T31C0 001:151 JLINK_WriteReg(R1, 0x00000400)  returns 0x00 (0000ms, 0725ms total)
T31C0 001:151 JLINK_WriteReg(R2, 0x20000164)  returns 0x00 (0000ms, 0725ms total)
T31C0 001:151 JLINK_WriteReg(R3, 0x00000000)  returns 0x00 (0000ms, 0725ms total)
T31C0 001:151 JLINK_WriteReg(R4, 0x00000000)  returns 0x00 (0000ms, 0725ms total)
T31C0 001:151 JLINK_WriteReg(R5, 0x00000000)  returns 0x00 (0000ms, 0725ms total)
T31C0 001:151 JLINK_WriteReg(R6, 0x00000000)  returns 0x00 (0000ms, 0725ms total)
T31C0 001:151 JLINK_WriteReg(R7, 0x00000000)  returns 0x00 (0000ms, 0725ms total)
T31C0 001:151 JLINK_WriteReg(R8, 0x00000000)  returns 0x00 (0000ms, 0725ms total)
T31C0 001:151 JLINK_WriteReg(R9, 0x20000160)  returns 0x00 (0000ms, 0725ms total)
T31C0 001:151 JLINK_WriteReg(R10, 0x00000000)  returns 0x00 (0000ms, 0725ms total)
T31C0 001:151 JLINK_WriteReg(R11, 0x00000000)  returns 0x00 (0000ms, 0725ms total)
T31C0 001:151 JLINK_WriteReg(R12, 0x00000000)  returns 0x00 (0000ms, 0725ms total)
T31C0 001:151 JLINK_WriteReg(R13 (SP), 0x20001000)  returns 0x00 (0000ms, 0725ms total)
T31C0 001:151 JLINK_WriteReg(R14, 0x20000001)  returns 0x00 (0000ms, 0725ms total)
T31C0 001:151 JLINK_WriteReg(R15 (PC), 0x200000F4)  returns 0x00 (0000ms, 0725ms total)
T31C0 001:151 JLINK_WriteReg(XPSR, 0x01000000)  returns 0x00 (0000ms, 0725ms total)
T31C0 001:151 JLINK_WriteReg(MSP, 0x20001000)  returns 0x00 (0000ms, 0725ms total)
T31C0 001:151 JLINK_WriteReg(PSP, 0x20001000)  returns 0x00 (0000ms, 0725ms total)
T31C0 001:151 JLINK_WriteReg(CFBP, 0x00000000)  returns 0x00 (0000ms, 0725ms total)
T31C0 001:151 JLINK_SetBPEx(Addr = 0x20000000, Type = 0xFFFFFFF2)  returns 0x00000008 (0000ms, 0725ms total)
T31C0 001:151 JLINK_Go() -- CPU_ReadMem(4 bytes @ 0xE0001000) (0002ms, 0727ms total)
T31C0 001:153 JLINK_IsHalted()  returns FALSE (0000ms, 0727ms total)
T31C0 001:155 JLINK_IsHalted()  returns FALSE (0000ms, 0727ms total)
T31C0 001:157 JLINK_IsHalted()  returns FALSE (0000ms, 0727ms total)
T31C0 001:159 JLINK_IsHalted()  returns FALSE (0000ms, 0727ms total)
T31C0 001:162 JLINK_IsHalted()  returns FALSE (0000ms, 0727ms total)
T31C0 001:164 JLINK_IsHalted()  returns FALSE (0000ms, 0727ms total)
T31C0 001:166 JLINK_IsHalted()  returns FALSE (0000ms, 0727ms total)
T31C0 001:168 JLINK_IsHalted()  returns FALSE (0000ms, 0727ms total)
T31C0 001:172 JLINK_IsHalted()  returns FALSE (0000ms, 0727ms total)
T31C0 001:174 JLINK_IsHalted()  returns FALSE (0000ms, 0727ms total)
T31C0 001:175 JLINK_IsHalted()  returns FALSE (0000ms, 0727ms total)
T31C0 001:177 JLINK_IsHalted()  returns FALSE (0000ms, 0727ms total)
T31C0 001:179 JLINK_IsHalted()  returns FALSE (0001ms, 0728ms total)
T31C0 001:182 JLINK_IsHalted()  returns FALSE (0000ms, 0727ms total)
T31C0 001:184 JLINK_IsHalted() -- CPU_ReadMem(2 bytes @ 0x20000000)  returns TRUE (0005ms, 0732ms total)
T31C0 001:189 JLINK_ReadReg(R15 (PC))  returns 0x20000000 (0000ms, 0727ms total)
T31C0 001:189 JLINK_ClrBPEx(BPHandle = 0x00000008)  returns 0x00 (0000ms, 0727ms total)
T31C0 001:189 JLINK_ReadReg(R0)  returns 0x00000000 (0000ms, 0727ms total)
T31C0 001:191 JLINK_WriteMem(0x20000164, 0x0400 Bytes, ...) - Data: 08 D1 21 F0 70 61 2F 4E 76 68 26 F0 70 66 2D 4F ... -- CPU_WriteMem(1024 bytes @ 0x20000164)  returns 0x400 (0006ms, 0733ms total)
T31C0 001:197 JLINK_WriteReg(R0, 0x08001000)  returns 0x00 (0000ms, 0733ms total)
T31C0 001:197 JLINK_WriteReg(R1, 0x00000400)  returns 0x00 (0000ms, 0733ms total)
T31C0 001:197 JLINK_WriteReg(R2, 0x20000164)  returns 0x00 (0000ms, 0733ms total)
T31C0 001:197 JLINK_WriteReg(R3, 0x00000000)  returns 0x00 (0000ms, 0733ms total)
T31C0 001:197 JLINK_WriteReg(R4, 0x00000000)  returns 0x00 (0000ms, 0733ms total)
T31C0 001:197 JLINK_WriteReg(R5, 0x00000000)  returns 0x00 (0000ms, 0733ms total)
T31C0 001:197 JLINK_WriteReg(R6, 0x00000000)  returns 0x00 (0000ms, 0733ms total)
T31C0 001:197 JLINK_WriteReg(R7, 0x00000000)  returns 0x00 (0000ms, 0733ms total)
T31C0 001:197 JLINK_WriteReg(R8, 0x00000000)  returns 0x00 (0000ms, 0733ms total)
T31C0 001:197 JLINK_WriteReg(R9, 0x20000160)  returns 0x00 (0000ms, 0733ms total)
T31C0 001:197 JLINK_WriteReg(R10, 0x00000000)  returns 0x00 (0000ms, 0733ms total)
T31C0 001:197 JLINK_WriteReg(R11, 0x00000000)  returns 0x00 (0000ms, 0733ms total)
T31C0 001:197 JLINK_WriteReg(R12, 0x00000000)  returns 0x00 (0000ms, 0733ms total)
T31C0 001:197 JLINK_WriteReg(R13 (SP), 0x20001000)  returns 0x00 (0000ms, 0733ms total)
T31C0 001:197 JLINK_WriteReg(R14, 0x20000001)  returns 0x00 (0000ms, 0733ms total)
T31C0 001:197 JLINK_WriteReg(R15 (PC), 0x200000F4)  returns 0x00 (0000ms, 0733ms total)
T31C0 001:197 JLINK_WriteReg(XPSR, 0x01000000)  returns 0x00 (0000ms, 0733ms total)
T31C0 001:197 JLINK_WriteReg(MSP, 0x20001000)  returns 0x00 (0000ms, 0733ms total)
T31C0 001:197 JLINK_WriteReg(PSP, 0x20001000)  returns 0x00 (0000ms, 0733ms total)
T31C0 001:197 JLINK_WriteReg(CFBP, 0x00000000)  returns 0x00 (0000ms, 0733ms total)
T31C0 001:197 JLINK_SetBPEx(Addr = 0x20000000, Type = 0xFFFFFFF2)  returns 0x00000009 (0000ms, 0733ms total)
T31C0 001:197 JLINK_Go() -- CPU_ReadMem(4 bytes @ 0xE0001000) (0002ms, 0735ms total)
T31C0 001:199 JLINK_IsHalted()  returns FALSE (0001ms, 0736ms total)
T31C0 001:203 JLINK_IsHalted()  returns FALSE (0000ms, 0735ms total)
T31C0 001:205 JLINK_IsHalted()  returns FALSE (0000ms, 0735ms total)
T31C0 001:207 JLINK_IsHalted()  returns FALSE (0000ms, 0735ms total)
T31C0 001:209 JLINK_IsHalted()  returns FALSE (0000ms, 0735ms total)
T31C0 001:211 JLINK_IsHalted()  returns FALSE (0000ms, 0735ms total)
T31C0 001:213 JLINK_IsHalted()  returns FALSE (0000ms, 0735ms total)
T31C0 001:215 JLINK_IsHalted()  returns FALSE (0000ms, 0735ms total)
T31C0 001:217 JLINK_IsHalted()  returns FALSE (0000ms, 0735ms total)
T31C0 001:219 JLINK_IsHalted()  returns FALSE (0000ms, 0735ms total)
T31C0 001:221 JLINK_IsHalted()  returns FALSE (0000ms, 0735ms total)
T31C0 001:223 JLINK_IsHalted()  returns FALSE (0000ms, 0735ms total)
T31C0 001:225 JLINK_IsHalted()  returns FALSE (0000ms, 0735ms total)
T31C0 001:227 JLINK_IsHalted()  returns FALSE (0000ms, 0735ms total)
T31C0 001:229 JLINK_IsHalted()  returns FALSE (0000ms, 0735ms total)
T31C0 001:231 JLINK_IsHalted() -- CPU_ReadMem(2 bytes @ 0x20000000)  returns TRUE (0006ms, 0741ms total)
T31C0 001:237 JLINK_ReadReg(R15 (PC))  returns 0x20000000 (0000ms, 0735ms total)
T31C0 001:237 JLINK_ClrBPEx(BPHandle = 0x00000009)  returns 0x00 (0000ms, 0735ms total)
T31C0 001:237 JLINK_ReadReg(R0)  returns 0x00000000 (0000ms, 0735ms total)
T31C0 001:237 JLINK_WriteMem(0x20000164, 0x0400 Bytes, ...) - Data: 05 60 00 BF 00 BF 44 4D 6D 68 05 F0 F0 01 09 09 ... -- CPU_WriteMem(1024 bytes @ 0x20000164)  returns 0x400 (0006ms, 0741ms total)
T31C0 001:243 JLINK_WriteReg(R0, 0x08001400)  returns 0x00 (0000ms, 0741ms total)
T31C0 001:243 JLINK_WriteReg(R1, 0x00000400)  returns 0x00 (0000ms, 0741ms total)
T31C0 001:243 JLINK_WriteReg(R2, 0x20000164)  returns 0x00 (0000ms, 0741ms total)
T31C0 001:243 JLINK_WriteReg(R3, 0x00000000)  returns 0x00 (0001ms, 0742ms total)
T31C0 001:244 JLINK_WriteReg(R4, 0x00000000)  returns 0x00 (0000ms, 0742ms total)
T31C0 001:244 JLINK_WriteReg(R5, 0x00000000)  returns 0x00 (0000ms, 0742ms total)
T31C0 001:244 JLINK_WriteReg(R6, 0x00000000)  returns 0x00 (0000ms, 0742ms total)
T31C0 001:244 JLINK_WriteReg(R7, 0x00000000)  returns 0x00 (0000ms, 0742ms total)
T31C0 001:244 JLINK_WriteReg(R8, 0x00000000)  returns 0x00 (0000ms, 0742ms total)
T31C0 001:244 JLINK_WriteReg(R9, 0x20000160)  returns 0x00 (0000ms, 0742ms total)
T31C0 001:244 JLINK_WriteReg(R10, 0x00000000)  returns 0x00 (0000ms, 0742ms total)
T31C0 001:244 JLINK_WriteReg(R11, 0x00000000)  returns 0x00 (0000ms, 0742ms total)
T31C0 001:244 JLINK_WriteReg(R12, 0x00000000)  returns 0x00 (0000ms, 0742ms total)
T31C0 001:244 JLINK_WriteReg(R13 (SP), 0x20001000)  returns 0x00 (0000ms, 0742ms total)
T31C0 001:244 JLINK_WriteReg(R14, 0x20000001)  returns 0x00 (0000ms, 0742ms total)
T31C0 001:244 JLINK_WriteReg(R15 (PC), 0x200000F4)  returns 0x00 (0000ms, 0742ms total)
T31C0 001:244 JLINK_WriteReg(XPSR, 0x01000000)  returns 0x00 (0000ms, 0742ms total)
T31C0 001:244 JLINK_WriteReg(MSP, 0x20001000)  returns 0x00 (0000ms, 0742ms total)
T31C0 001:244 JLINK_WriteReg(PSP, 0x20001000)  returns 0x00 (0000ms, 0742ms total)
T31C0 001:244 JLINK_WriteReg(CFBP, 0x00000000)  returns 0x00 (0000ms, 0742ms total)
T31C0 001:244 JLINK_SetBPEx(Addr = 0x20000000, Type = 0xFFFFFFF2)  returns 0x0000000A (0000ms, 0742ms total)
T31C0 001:244 JLINK_Go() -- CPU_ReadMem(4 bytes @ 0xE0001000) (0002ms, 0744ms total)
T31C0 001:246 JLINK_IsHalted()  returns FALSE (0001ms, 0745ms total)
T31C0 001:249 JLINK_IsHalted()  returns FALSE (0000ms, 0744ms total)
T31C0 001:251 JLINK_IsHalted()  returns FALSE (0000ms, 0744ms total)
T31C0 001:253 JLINK_IsHalted()  returns FALSE (0000ms, 0744ms total)
T31C0 001:255 JLINK_IsHalted()  returns FALSE (0000ms, 0744ms total)
T31C0 001:257 JLINK_IsHalted()  returns FALSE (0000ms, 0744ms total)
T31C0 001:260 JLINK_IsHalted()  returns FALSE (0001ms, 0745ms total)
T31C0 001:263 JLINK_IsHalted()  returns FALSE (0000ms, 0744ms total)
T31C0 001:265 JLINK_IsHalted()  returns FALSE (0000ms, 0744ms total)
T31C0 001:267 JLINK_IsHalted()  returns FALSE (0000ms, 0744ms total)
T31C0 001:269 JLINK_IsHalted()  returns FALSE (0000ms, 0744ms total)
T31C0 001:271 JLINK_IsHalted()  returns FALSE (0000ms, 0744ms total)
T31C0 001:273 JLINK_IsHalted()  returns FALSE (0000ms, 0744ms total)
T31C0 001:275 JLINK_IsHalted()  returns FALSE (0000ms, 0744ms total)
T31C0 001:277 JLINK_IsHalted()  returns FALSE (0000ms, 0744ms total)
T31C0 001:279 JLINK_IsHalted() -- CPU_ReadMem(2 bytes @ 0x20000000)  returns TRUE (0005ms, 0749ms total)
T31C0 001:284 JLINK_ReadReg(R15 (PC))  returns 0x20000000 (0000ms, 0744ms total)
T31C0 001:284 JLINK_ClrBPEx(BPHandle = 0x0000000A)  returns 0x00 (0000ms, 0744ms total)
T31C0 001:284 JLINK_ReadReg(R0)  returns 0x00000000 (0000ms, 0744ms total)
T31C0 001:284 JLINK_WriteMem(0x20000164, 0x0400 Bytes, ...) - Data: 48 04 FF F7 51 FE 00 21 4F F4 00 30 FF F7 4C FE ... -- CPU_WriteMem(1024 bytes @ 0x20000164)  returns 0x400 (0007ms, 0751ms total)
T31C0 001:291 JLINK_WriteReg(R0, 0x08001800)  returns 0x00 (0000ms, 0751ms total)
T31C0 001:291 JLINK_WriteReg(R1, 0x00000400)  returns 0x00 (0000ms, 0751ms total)
T31C0 001:291 JLINK_WriteReg(R2, 0x20000164)  returns 0x00 (0000ms, 0751ms total)
T31C0 001:291 JLINK_WriteReg(R3, 0x00000000)  returns 0x00 (0000ms, 0751ms total)
T31C0 001:291 JLINK_WriteReg(R4, 0x00000000)  returns 0x00 (0000ms, 0751ms total)
T31C0 001:291 JLINK_WriteReg(R5, 0x00000000)  returns 0x00 (0000ms, 0751ms total)
T31C0 001:291 JLINK_WriteReg(R6, 0x00000000)  returns 0x00 (0000ms, 0751ms total)
T31C0 001:291 JLINK_WriteReg(R7, 0x00000000)  returns 0x00 (0000ms, 0751ms total)
T31C0 001:291 JLINK_WriteReg(R8, 0x00000000)  returns 0x00 (0000ms, 0751ms total)
T31C0 001:292 JLINK_WriteReg(R9, 0x20000160)  returns 0x00 (0000ms, 0752ms total)
T31C0 001:292 JLINK_WriteReg(R10, 0x00000000)  returns 0x00 (0000ms, 0752ms total)
T31C0 001:292 JLINK_WriteReg(R11, 0x00000000)  returns 0x00 (0000ms, 0752ms total)
T31C0 001:292 JLINK_WriteReg(R12, 0x00000000)  returns 0x00 (0000ms, 0752ms total)
T31C0 001:292 JLINK_WriteReg(R13 (SP), 0x20001000)  returns 0x00 (0000ms, 0752ms total)
T31C0 001:292 JLINK_WriteReg(R14, 0x20000001)  returns 0x00 (0000ms, 0752ms total)
T31C0 001:292 JLINK_WriteReg(R15 (PC), 0x200000F4)  returns 0x00 (0000ms, 0752ms total)
T31C0 001:292 JLINK_WriteReg(XPSR, 0x01000000)  returns 0x00 (0000ms, 0752ms total)
T31C0 001:292 JLINK_WriteReg(MSP, 0x20001000)  returns 0x00 (0000ms, 0752ms total)
T31C0 001:292 JLINK_WriteReg(PSP, 0x20001000)  returns 0x00 (0000ms, 0752ms total)
T31C0 001:292 JLINK_WriteReg(CFBP, 0x00000000)  returns 0x00 (0000ms, 0752ms total)
T31C0 001:292 JLINK_SetBPEx(Addr = 0x20000000, Type = 0xFFFFFFF2)  returns 0x0000000B (0000ms, 0752ms total)
T31C0 001:292 JLINK_Go() -- CPU_ReadMem(4 bytes @ 0xE0001000) (0002ms, 0754ms total)
T31C0 001:294 JLINK_IsHalted()  returns FALSE (0001ms, 0755ms total)
T31C0 001:297 JLINK_IsHalted()  returns FALSE (0000ms, 0754ms total)
T31C0 001:299 JLINK_IsHalted()  returns FALSE (0000ms, 0754ms total)
T31C0 001:301 JLINK_IsHalted()  returns FALSE (0000ms, 0754ms total)
T31C0 001:303 JLINK_IsHalted()  returns FALSE (0000ms, 0754ms total)
T31C0 001:305 JLINK_IsHalted()  returns FALSE (0000ms, 0754ms total)
T31C0 001:307 JLINK_IsHalted()  returns FALSE (0000ms, 0754ms total)
T31C0 001:312 JLINK_IsHalted()  returns FALSE (0000ms, 0754ms total)
T31C0 001:314 JLINK_IsHalted()  returns FALSE (0000ms, 0754ms total)
T31C0 001:316 JLINK_IsHalted()  returns FALSE (0000ms, 0754ms total)
T31C0 001:318 JLINK_IsHalted()  returns FALSE (0000ms, 0754ms total)
T31C0 001:320 JLINK_IsHalted()  returns FALSE (0000ms, 0754ms total)
T31C0 001:323 JLINK_IsHalted()  returns FALSE (0000ms, 0754ms total)
T31C0 001:325 JLINK_IsHalted() -- CPU_ReadMem(2 bytes @ 0x20000000)  returns TRUE (0005ms, 0759ms total)
T31C0 001:330 JLINK_ReadReg(R15 (PC))  returns 0x20000000 (0000ms, 0754ms total)
T31C0 001:330 JLINK_ClrBPEx(BPHandle = 0x0000000B)  returns 0x00 (0000ms, 0754ms total)
T31C0 001:330 JLINK_ReadReg(R0)  returns 0x00000000 (0000ms, 0754ms total)
T31C0 001:330 JLINK_WriteMem(0x20000164, 0x0400 Bytes, ...) - Data: 07 EA 0C 07 07 84 01 8B 02 8C 4F F6 FF 77 07 EA ... -- CPU_WriteMem(1024 bytes @ 0x20000164)  returns 0x400 (0008ms, 0762ms total)
T31C0 001:338 JLINK_WriteReg(R0, 0x08001C00)  returns 0x00 (0000ms, 0762ms total)
T31C0 001:338 JLINK_WriteReg(R1, 0x00000400)  returns 0x00 (0000ms, 0762ms total)
T31C0 001:338 JLINK_WriteReg(R2, 0x20000164)  returns 0x00 (0000ms, 0762ms total)
T31C0 001:338 JLINK_WriteReg(R3, 0x00000000)  returns 0x00 (0000ms, 0762ms total)
T31C0 001:338 JLINK_WriteReg(R4, 0x00000000)  returns 0x00 (0000ms, 0762ms total)
T31C0 001:338 JLINK_WriteReg(R5, 0x00000000)  returns 0x00 (0000ms, 0762ms total)
T31C0 001:338 JLINK_WriteReg(R6, 0x00000000)  returns 0x00 (0000ms, 0762ms total)
T31C0 001:338 JLINK_WriteReg(R7, 0x00000000)  returns 0x00 (0000ms, 0762ms total)
T31C0 001:338 JLINK_WriteReg(R8, 0x00000000)  returns 0x00 (0000ms, 0762ms total)
T31C0 001:338 JLINK_WriteReg(R9, 0x20000160)  returns 0x00 (0000ms, 0762ms total)
T31C0 001:338 JLINK_WriteReg(R10, 0x00000000)  returns 0x00 (0000ms, 0762ms total)
T31C0 001:338 JLINK_WriteReg(R11, 0x00000000)  returns 0x00 (0000ms, 0762ms total)
T31C0 001:338 JLINK_WriteReg(R12, 0x00000000)  returns 0x00 (0000ms, 0762ms total)
T31C0 001:338 JLINK_WriteReg(R13 (SP), 0x20001000)  returns 0x00 (0000ms, 0762ms total)
T31C0 001:338 JLINK_WriteReg(R14, 0x20000001)  returns 0x00 (0000ms, 0762ms total)
T31C0 001:338 JLINK_WriteReg(R15 (PC), 0x200000F4)  returns 0x00 (0000ms, 0762ms total)
T31C0 001:338 JLINK_WriteReg(XPSR, 0x01000000)  returns 0x00 (0000ms, 0762ms total)
T31C0 001:338 JLINK_WriteReg(MSP, 0x20001000)  returns 0x00 (0000ms, 0762ms total)
T31C0 001:338 JLINK_WriteReg(PSP, 0x20001000)  returns 0x00 (0000ms, 0762ms total)
T31C0 001:338 JLINK_WriteReg(CFBP, 0x00000000)  returns 0x00 (0000ms, 0762ms total)
T31C0 001:338 JLINK_SetBPEx(Addr = 0x20000000, Type = 0xFFFFFFF2)  returns 0x0000000C (0000ms, 0762ms total)
T31C0 001:338 JLINK_Go() -- CPU_ReadMem(4 bytes @ 0xE0001000) (0002ms, 0764ms total)
T31C0 001:340 JLINK_IsHalted()  returns FALSE (0001ms, 0765ms total)
T31C0 001:343 JLINK_IsHalted()  returns FALSE (0000ms, 0764ms total)
T31C0 001:345 JLINK_IsHalted()  returns FALSE (0000ms, 0764ms total)
T31C0 001:347 JLINK_IsHalted()  returns FALSE (0000ms, 0764ms total)
T31C0 001:349 JLINK_IsHalted()  returns FALSE (0000ms, 0764ms total)
T31C0 001:351 JLINK_IsHalted()  returns FALSE (0000ms, 0764ms total)
T31C0 001:353 JLINK_IsHalted()  returns FALSE (0000ms, 0764ms total)
T31C0 001:355 JLINK_IsHalted()  returns FALSE (0000ms, 0764ms total)
T31C0 001:357 JLINK_IsHalted()  returns FALSE (0000ms, 0764ms total)
T31C0 001:359 JLINK_IsHalted()  returns FALSE (0000ms, 0764ms total)
T31C0 001:361 JLINK_IsHalted()  returns FALSE (0000ms, 0764ms total)
T31C0 001:363 JLINK_IsHalted()  returns FALSE (0000ms, 0764ms total)
T31C0 001:365 JLINK_IsHalted()  returns FALSE (0001ms, 0765ms total)
T31C0 001:368 JLINK_IsHalted()  returns FALSE (0000ms, 0764ms total)
T31C0 001:370 JLINK_IsHalted()  returns FALSE (0000ms, 0764ms total)
T31C0 001:372 JLINK_IsHalted() -- CPU_ReadMem(2 bytes @ 0x20000000)  returns TRUE (0005ms, 0769ms total)
T31C0 001:377 JLINK_ReadReg(R15 (PC))  returns 0x20000000 (0000ms, 0764ms total)
T31C0 001:377 JLINK_ClrBPEx(BPHandle = 0x0000000C)  returns 0x00 (0000ms, 0764ms total)
T31C0 001:377 JLINK_ReadReg(R0)  returns 0x00000000 (0000ms, 0764ms total)
T31C0 001:378 JLINK_WriteMem(0x20000164, 0x0400 Bytes, ...) - Data: 42 F0 04 02 82 80 04 E0 82 88 4F F6 FB 73 1A 40 ... -- CPU_WriteMem(1024 bytes @ 0x20000164)  returns 0x400 (0007ms, 0771ms total)
T31C0 001:385 JLINK_WriteReg(R0, 0x08002000)  returns 0x00 (0000ms, 0771ms total)
T31C0 001:385 JLINK_WriteReg(R1, 0x00000400)  returns 0x00 (0000ms, 0771ms total)
T31C0 001:385 JLINK_WriteReg(R2, 0x20000164)  returns 0x00 (0000ms, 0771ms total)
T31C0 001:385 JLINK_WriteReg(R3, 0x00000000)  returns 0x00 (0000ms, 0771ms total)
T31C0 001:385 JLINK_WriteReg(R4, 0x00000000)  returns 0x00 (0000ms, 0771ms total)
T31C0 001:385 JLINK_WriteReg(R5, 0x00000000)  returns 0x00 (0000ms, 0771ms total)
T31C0 001:385 JLINK_WriteReg(R6, 0x00000000)  returns 0x00 (0000ms, 0771ms total)
T31C0 001:385 JLINK_WriteReg(R7, 0x00000000)  returns 0x00 (0000ms, 0771ms total)
T31C0 001:385 JLINK_WriteReg(R8, 0x00000000)  returns 0x00 (0000ms, 0771ms total)
T31C0 001:385 JLINK_WriteReg(R9, 0x20000160)  returns 0x00 (0000ms, 0771ms total)
T31C0 001:385 JLINK_WriteReg(R10, 0x00000000)  returns 0x00 (0000ms, 0771ms total)
T31C0 001:385 JLINK_WriteReg(R11, 0x00000000)  returns 0x00 (0000ms, 0771ms total)
T31C0 001:385 JLINK_WriteReg(R12, 0x00000000)  returns 0x00 (0000ms, 0771ms total)
T31C0 001:385 JLINK_WriteReg(R13 (SP), 0x20001000)  returns 0x00 (0000ms, 0771ms total)
T31C0 001:385 JLINK_WriteReg(R14, 0x20000001)  returns 0x00 (0000ms, 0771ms total)
T31C0 001:385 JLINK_WriteReg(R15 (PC), 0x200000F4)  returns 0x00 (0000ms, 0771ms total)
T31C0 001:385 JLINK_WriteReg(XPSR, 0x01000000)  returns 0x00 (0000ms, 0771ms total)
T31C0 001:385 JLINK_WriteReg(MSP, 0x20001000)  returns 0x00 (0000ms, 0771ms total)
T31C0 001:385 JLINK_WriteReg(PSP, 0x20001000)  returns 0x00 (0000ms, 0771ms total)
T31C0 001:385 JLINK_WriteReg(CFBP, 0x00000000)  returns 0x00 (0000ms, 0771ms total)
T31C0 001:385 JLINK_SetBPEx(Addr = 0x20000000, Type = 0xFFFFFFF2)  returns 0x0000000D (0000ms, 0771ms total)
T31C0 001:385 JLINK_Go() -- CPU_ReadMem(4 bytes @ 0xE0001000) (0002ms, 0773ms total)
T31C0 001:387 JLINK_IsHalted()  returns FALSE (0001ms, 0774ms total)
T31C0 001:390 JLINK_IsHalted()  returns FALSE (0000ms, 0773ms total)
T31C0 001:392 JLINK_IsHalted()  returns FALSE (0000ms, 0773ms total)
T31C0 001:394 JLINK_IsHalted()  returns FALSE (0001ms, 0774ms total)
T31C0 001:397 JLINK_IsHalted()  returns FALSE (0001ms, 0774ms total)
T31C0 001:400 JLINK_IsHalted()  returns FALSE (0000ms, 0773ms total)
T31C0 001:402 JLINK_IsHalted()  returns FALSE (0000ms, 0773ms total)
T31C0 001:404 JLINK_IsHalted()  returns FALSE (0000ms, 0773ms total)
T31C0 001:406 JLINK_IsHalted()  returns FALSE (0000ms, 0773ms total)
T31C0 001:408 JLINK_IsHalted()  returns FALSE (0000ms, 0773ms total)
T31C0 001:410 JLINK_IsHalted()  returns FALSE (0000ms, 0773ms total)
T31C0 001:412 JLINK_IsHalted()  returns FALSE (0000ms, 0773ms total)
T31C0 001:414 JLINK_IsHalted()  returns FALSE (0000ms, 0773ms total)
T31C0 001:416 JLINK_IsHalted()  returns FALSE (0000ms, 0773ms total)
T31C0 001:418 JLINK_IsHalted()  returns FALSE (0000ms, 0773ms total)
T31C0 001:422 JLINK_IsHalted() -- CPU_ReadMem(2 bytes @ 0x20000000)  returns TRUE (0005ms, 0778ms total)
T31C0 001:427 JLINK_ReadReg(R15 (PC))  returns 0x20000000 (0000ms, 0773ms total)
T31C0 001:427 JLINK_ClrBPEx(BPHandle = 0x0000000D)  returns 0x00 (0000ms, 0773ms total)
T31C0 001:427 JLINK_ReadReg(R0)  returns 0x00000000 (0000ms, 0773ms total)
T31C0 001:427 JLINK_WriteMem(0x20000164, 0x0400 Bytes, ...) - Data: 00 21 4F F4 00 20 FF F7 5C F8 0B E0 E5 48 84 42 ... -- CPU_WriteMem(1024 bytes @ 0x20000164)  returns 0x400 (0007ms, 0780ms total)
T31C0 001:434 JLINK_WriteReg(R0, 0x08002400)  returns 0x00 (0000ms, 0780ms total)
T31C0 001:434 JLINK_WriteReg(R1, 0x00000400)  returns 0x00 (0000ms, 0780ms total)
T31C0 001:434 JLINK_WriteReg(R2, 0x20000164)  returns 0x00 (0000ms, 0780ms total)
T31C0 001:434 JLINK_WriteReg(R3, 0x00000000)  returns 0x00 (0000ms, 0780ms total)
T31C0 001:434 JLINK_WriteReg(R4, 0x00000000)  returns 0x00 (0000ms, 0780ms total)
T31C0 001:434 JLINK_WriteReg(R5, 0x00000000)  returns 0x00 (0000ms, 0780ms total)
T31C0 001:434 JLINK_WriteReg(R6, 0x00000000)  returns 0x00 (0000ms, 0780ms total)
T31C0 001:434 JLINK_WriteReg(R7, 0x00000000)  returns 0x00 (0000ms, 0780ms total)
T31C0 001:434 JLINK_WriteReg(R8, 0x00000000)  returns 0x00 (0000ms, 0780ms total)
T31C0 001:434 JLINK_WriteReg(R9, 0x20000160)  returns 0x00 (0000ms, 0780ms total)
T31C0 001:434 JLINK_WriteReg(R10, 0x00000000)  returns 0x00 (0000ms, 0780ms total)
T31C0 001:434 JLINK_WriteReg(R11, 0x00000000)  returns 0x00 (0000ms, 0780ms total)
T31C0 001:434 JLINK_WriteReg(R12, 0x00000000)  returns 0x00 (0000ms, 0780ms total)
T31C0 001:434 JLINK_WriteReg(R13 (SP), 0x20001000)  returns 0x00 (0000ms, 0780ms total)
